T140C 000:357.828   SEGGER J-Link V7.98h Log File
T140C 000:357.951   DLL Compiled: Sep 11 2024 14:28:01
T140C 000:357.957   Logging started @ 2026-06-13 00:51
T140C 000:357.963   Process: D:\soft\keil5\UV4\UV4.exe
T140C 000:357.975 - 357.968ms
T140C 000:357.986 JLINK_SetWarnOutHandler(...)
T140C 000:357.992 - 0.008ms
T140C 000:358.000 JLINK_OpenEx(...)
T140C 000:360.476   Firmware: J-Link V11 compiled Apr 27 2041 16:36:21
T140C 000:361.372   Firmware: J-Link V11 compiled Apr 27 2041 16:36:21
T140C 000:380.598   Hardware: V11.00
T140C 000:380.617   S/N: 50120677
T140C 000:380.625   OEM: SEGGER
T140C 000:380.633   Feature(s): GDB, JFlash, FlashDL, RDI, FlashBP
T140C 000:381.361   Bootloader: (FW returned invalid version)
T140C 000:382.209   TELNET listener socket opened on port 19021
T140C 000:382.280   WEBSRV WEBSRV_Init(): Starting webserver thread(s)
T140C 000:382.455   WEBSRV Webserver running on local port 19080
T140C 000:382.631   Looking for J-Link GUI Server exe at: D:\soft\keil5\ARM\Segger\JLinkGUIServer.exe
T140C 000:382.662   Looking for J-Link GUI Server exe at: D:\soft\JLink_V798c\JLinkGUIServer.exe
T140C 000:689.067   Failed to connect to J-Link GUI Server.
T140C 000:689.107 - 331.100ms returns "O.K."
T140C 000:689.125 JLINK_SetErrorOutHandler(...)
T140C 000:689.131 - 0.005ms
T140C 000:689.166 JLINK_ExecCommand("ProjectFile = "F:\work\ADC_TEST\MDK-ARM\JLinkSettings.ini"", ...). 
T140C 000:701.577   Ref file found at: D:\soft\keil5\ARM\Segger\JLinkDevices.ref
T140C 000:701.659   REF file references invalid XML file: D:\soft\JLink_V798c\JLinkDevices.xml
T140C 000:703.514   Flash bank @ 0x08000000: SFL: Parsing sectorization info from ELF file
T140C 000:703.530     FlashDevice.SectorInfo[0]: .SectorSize = 0x00020000, .SectorStartAddr = 0x00000000
T140C 000:703.539   FlashBank @0x08000000: Sectorization info from SFL ELF file ignored because sectorization override from DLL / XML file is active.
T140C 000:703.612   Flash bank @ 0x90000000: SFL: Parsing sectorization info from ELF file
T140C 000:703.621     FlashDevice.SectorInfo[0]: .SectorSize = 0x00010000, .SectorStartAddr = 0x00000000
T140C 000:717.486   Device "STM32H750VB" selected.
T140C 000:717.930 - 28.760ms returns 0x00
T140C 000:720.260 JLINK_ExecCommand("Device = STM32H750VBTx", ...). 
T140C 000:724.701   Flash bank @ 0x08000000: SFL: Parsing sectorization info from ELF file
T140C 000:724.719     FlashDevice.SectorInfo[0]: .SectorSize = 0x00020000, .SectorStartAddr = 0x00000000
T140C 000:724.728   FlashBank @0x08000000: Sectorization info from SFL ELF file ignored because sectorization override from DLL / XML file is active.
T140C 000:725.019   Flash bank @ 0x90000000: SFL: Parsing sectorization info from ELF file
T140C 000:725.031     FlashDevice.SectorInfo[0]: .SectorSize = 0x00010000, .SectorStartAddr = 0x00000000
T140C 000:740.125   Device "STM32H750VB" selected.
T140C 000:740.576 - 20.299ms returns 0x00
T140C 000:740.592 JLINK_ExecCommand("DisableConnectionTimeout", ...). 
T140C 000:740.602   ERROR: Unknown command
T140C 000:740.610 - 0.010ms returns 0x01
T140C 000:740.617 JLINK_GetHardwareVersion()
T140C 000:740.623 - 0.005ms returns 110000
T140C 000:740.635 JLINK_GetDLLVersion()
T140C 000:740.640 - 0.010ms returns 79808
T140C 000:740.648 JLINK_GetOEMString(...)
T140C 000:740.655 JLINK_GetFirmwareString(...)
T140C 000:740.661 - 0.005ms
T140C 000:752.426 JLINK_GetDLLVersion()
T140C 000:752.458 - 0.031ms returns 79808
T140C 000:752.465 JLINK_GetCompileDateTime()
T140C 000:752.471 - 0.005ms
T140C 000:757.272 JLINK_GetFirmwareString(...)
T140C 000:757.292 - 0.020ms
T140C 000:761.070 JLINK_GetHardwareVersion()
T140C 000:761.092 - 0.021ms returns 110000
T140C 000:763.807 JLINK_GetSN()
T140C 000:763.832 - 0.026ms returns 50120677
T140C 000:765.948 JLINK_GetOEMString(...)
T140C 000:769.795 JLINK_TIF_Select(JLINKARM_TIF_SWD)
T140C 000:770.587 - 0.793ms returns 0x00
T140C 000:770.598 JLINK_HasError()
T140C 000:770.616 JLINK_SetSpeed(20000)
T140C 000:770.764 - 0.149ms
T140C 000:770.773 JLINK_GetId()
T140C 000:774.192   ConfigTargetSettings() start
T140C 000:774.223    J-Link Script File: Executing ConfigTargetSettings()
T140C 000:776.514   ConfigTargetSettings() end - Took 35us
T140C 000:778.623   InitTarget() start
T140C 000:778.644    J-Link Script File: Executing InitTarget()
T140C 000:780.964   SWD selected. Executing JTAG -> SWD switching sequence.
T140C 000:784.974   DAP initialized successfully.
T140C 000:798.095   InitTarget() end - Took 16.2ms
T140C 000:801.164   Found SW-DP with ID 0x6BA02477
T140C 000:809.848   DPIDR: 0x6BA02477
T140C 000:812.389   CoreSight SoC-400 or earlier
T140C 000:814.830   Scanning AP map to find all available APs
T140C 000:818.264   AP[3]: Stopped AP scan as end of AP map has been reached
T140C 000:822.649   AP[0]: AHB-AP (IDR: 0x84770001, ADDR: 0x00000000)
T140C 000:824.943   AP[1]: AHB-AP (IDR: 0x84770001, ADDR: 0x01000000)
T140C 000:826.862   AP[2]: APB-AP (IDR: 0x54770002, ADDR: 0x02000000)
T140C 000:828.762   Iterating through AP map to find AHB-AP to use
T140C 000:831.058   AP[0]: Core found
T140C 000:832.890   AP[0]: AHB-AP ROM base: 0xE00FE000
T140C 000:835.886   CPUID register: 0x411FC271. Implementer code: 0x41 (ARM)
T140C 000:838.573   Cache: L1 I/D-cache present
T140C 000:840.451   Found Cortex-M7 r1p1, Little endian.
T140C 000:840.851   -- Max. mem block: 0x00004518
T140C 000:841.520   CPU_ReadMem(4 bytes @ 0xE000EDF0)
T140C 000:841.794   CPU_ReadMem(4 bytes @ 0xE0002000)
T140C 000:843.867   FPUnit: 8 code (BP) slots and 0 literal slots
T140C 000:843.882   CPU_ReadMem(4 bytes @ 0xE000EDFC)
T140C 000:844.076   CPU_ReadMem(4 bytes @ 0xE0001000)
T140C 000:844.292   CPU_WriteMem(4 bytes @ 0xE0001000)
T140C 000:844.545   CPU_ReadMem(4 bytes @ 0xE000ED88)
T140C 000:844.773   CPU_WriteMem(4 bytes @ 0xE000ED88)
T140C 000:845.041   CPU_ReadMem(4 bytes @ 0xE000ED88)
T140C 000:845.296   CPU_WriteMem(4 bytes @ 0xE000ED88)
T140C 000:847.373   CoreSight components:
T140C 000:849.323   ROMTbl[0] @ E00FE000
T140C 000:849.337   CPU_ReadMem(64 bytes @ 0xE00FE000)
T140C 000:849.646   CPU_ReadMem(32 bytes @ 0xE00FFFE0)
T140C 000:856.289   [0][0]: E00FF000 CID B105100D PID 000BB4C7 ROM Table
T140C 000:858.668   ROMTbl[1] @ E00FF000
T140C 000:858.696   CPU_ReadMem(64 bytes @ 0xE00FF000)
T140C 000:858.968   CPU_ReadMem(32 bytes @ 0xE000EFE0)
T140C 000:861.549   [1][0]: E000E000 CID B105E00D PID 000BB00C SCS-M7
T140C 000:861.568   CPU_ReadMem(32 bytes @ 0xE0001FE0)
T140C 000:864.304   [1][1]: E0001000 CID B105E00D PID 000BB002 DWT
T140C 000:864.323   CPU_ReadMem(32 bytes @ 0xE0002FE0)
T140C 000:869.823   [1][2]: E0002000 CID B105E00D PID 000BB00E FPB-M7
T140C 000:869.937   CPU_ReadMem(32 bytes @ 0xE0000FE0)
T140C 000:876.110   [1][3]: E0000000 CID B105E00D PID 000BB001 ITM
T140C 000:876.143   CPU_ReadMem(32 bytes @ 0xE0041FE0)
T140C 000:878.551   [0][1]: E0041000 CID B105900D PID 001BB975 ETM-M7
T140C 000:878.569   CPU_ReadMem(32 bytes @ 0xE0043FE0)
T140C 000:881.187   [0][2]: E0043000 CID B105900D PID 004BB906 CTI
T140C 000:881.217   CPU_WriteMem(4 bytes @ 0xE000ED84)
T140C 000:881.441   CPU_ReadMem(4 bytes @ 0xE000ED80)
T140C 000:884.594   I-Cache L1: 16 KB, 256 Sets, 32 Bytes/Line, 2-Way
T140C 000:884.611   CPU_WriteMem(4 bytes @ 0xE000ED84)
T140C 000:884.827   CPU_ReadMem(4 bytes @ 0xE000ED80)
T140C 000:890.738   D-Cache L1: 16 KB, 128 Sets, 32 Bytes/Line, 4-Way
T140C 000:890.952 - 120.178ms returns 0x6BA02477
T140C 000:890.968 JLINK_GetDLLVersion()
T140C 000:890.974 - 0.005ms returns 79808
T140C 000:891.029 JLINK_CORE_GetFound()
T140C 000:891.035 - 0.006ms returns 0xE0100FF
T140C 000:891.042 JLINK_GetDebugInfo(0x100 = JLINKARM_ROM_TABLE_ADDR_INDEX)
T140C 000:891.048   Value=0xE00FE000
T140C 000:891.056 - 0.014ms returns 0
T140C 000:893.459 JLINK_ReadMem(0xE00FE000, 0x20 Bytes, ...)
T140C 000:893.496   CPU_ReadMem(32 bytes @ 0xE00FE000)
T140C 000:893.744   Data:  03 10 00 00 03 30 F4 FF 03 50 F4 FF 02 20 F0 1F ...
T140C 000:893.754 - 0.294ms returns 0
T140C 000:893.762 JLINK_ReadMem(0xE00FFFF0, 0x10 Bytes, ...)
T140C 000:893.769   CPU_ReadMem(16 bytes @ 0xE00FFFF0)
T140C 000:893.991   Data:  0D 00 00 00 10 00 00 00 05 00 00 00 B1 00 00 00
T140C 000:893.999 - 0.237ms returns 0
T140C 000:894.007 JLINK_ReadMem(0xE00FFFD0, 0x20 Bytes, ...)
T140C 000:894.014   CPU_ReadMem(32 bytes @ 0xE00FFFD0)
T140C 000:894.262   Data:  04 00 00 00 00 00 00 00 00 00 00 00 00 00 00 00 ...
T140C 000:894.270 - 0.263ms returns 0
T140C 000:894.278 JLINK_ReadMem(0xE00FF000, 0x20 Bytes, ...)
T140C 000:894.284   CPU_ReadMem(32 bytes @ 0xE00FF000)
T140C 000:894.541   Data:  03 F0 F0 FF 03 20 F0 FF 03 30 F0 FF 03 10 F0 FF ...
T140C 000:894.550 - 0.272ms returns 0
T140C 000:894.557 JLINK_ReadMem(0xE000EFF0, 0x10 Bytes, ...)
T140C 000:894.563   CPU_ReadMem(16 bytes @ 0xE000EFF0)
T140C 000:894.778   Data:  0D 00 00 00 E0 00 00 00 05 00 00 00 B1 00 00 00
T140C 000:894.786 - 0.229ms returns 0
T140C 000:894.794 JLINK_ReadMem(0xE000EFD0, 0x20 Bytes, ...)
T140C 000:894.800   CPU_ReadMem(32 bytes @ 0xE000EFD0)
T140C 000:895.063   Data:  04 00 00 00 00 00 00 00 00 00 00 00 00 00 00 00 ...
T140C 000:895.071 - 0.277ms returns 0
T140C 000:895.078 JLINK_ReadMem(0xE0001FF0, 0x10 Bytes, ...)
T140C 000:895.085   CPU_ReadMem(16 bytes @ 0xE0001FF0)
T140C 000:895.289   Data:  0D 00 00 00 E0 00 00 00 05 00 00 00 B1 00 00 00
T140C 000:895.297 - 0.219ms returns 0
T140C 000:895.305 JLINK_ReadMem(0xE0001FD0, 0x20 Bytes, ...)
T140C 000:895.311   CPU_ReadMem(32 bytes @ 0xE0001FD0)
T140C 000:895.558   Data:  04 00 00 00 00 00 00 00 00 00 00 00 00 00 00 00 ...
T140C 000:895.567 - 0.261ms returns 0
T140C 000:895.574 JLINK_ReadMem(0xE0002FF0, 0x10 Bytes, ...)
T140C 000:895.580   CPU_ReadMem(16 bytes @ 0xE0002FF0)
T140C 000:895.753   Data:  0D 00 00 00 E0 00 00 00 05 00 00 00 B1 00 00 00
T140C 000:895.767 - 0.193ms returns 0
T140C 000:895.776 JLINK_ReadMem(0xE0002FD0, 0x20 Bytes, ...)
T140C 000:895.786   CPU_ReadMem(32 bytes @ 0xE0002FD0)
T140C 000:896.023   Data:  04 00 00 00 00 00 00 00 00 00 00 00 00 00 00 00 ...
T140C 000:896.033 - 0.256ms returns 0
T140C 000:896.040 JLINK_ReadMem(0xE0000FF0, 0x10 Bytes, ...)
T140C 000:896.048   CPU_ReadMem(16 bytes @ 0xE0000FF0)
T140C 000:896.262   Data:  0D 00 00 00 E0 00 00 00 05 00 00 00 B1 00 00 00
T140C 000:896.272 - 0.231ms returns 0
T140C 000:896.280 JLINK_ReadMem(0xE0000FD0, 0x20 Bytes, ...)
T140C 000:896.287   CPU_ReadMem(32 bytes @ 0xE0000FD0)
T140C 000:896.520   Data:  04 00 00 00 00 00 00 00 00 00 00 00 00 00 00 00 ...
T140C 000:896.529 - 0.249ms returns 0
T140C 000:896.537 JLINK_ReadMem(0xE0041FF0, 0x10 Bytes, ...)
T140C 000:896.544   CPU_ReadMem(16 bytes @ 0xE0041FF0)
T140C 000:896.713   Data:  0D 00 00 00 90 00 00 00 05 00 00 00 B1 00 00 00
T140C 000:896.729 - 0.191ms returns 0
T140C 000:896.737 JLINK_ReadMem(0xE0041FD0, 0x20 Bytes, ...)
T140C 000:896.746   CPU_ReadMem(32 bytes @ 0xE0041FD0)
T140C 000:896.953   Data:  04 00 00 00 00 00 00 00 00 00 00 00 00 00 00 00 ...
T140C 000:896.963 - 0.225ms returns 0
T140C 000:896.971 JLINK_ReadMem(0xE0043FF0, 0x10 Bytes, ...)
T140C 000:896.978   CPU_ReadMem(16 bytes @ 0xE0043FF0)
T140C 000:897.158   Data:  0D 00 00 00 90 00 00 00 05 00 00 00 B1 00 00 00
T140C 000:897.167 - 0.196ms returns 0
T140C 000:897.174 JLINK_ReadMem(0xE0043FD0, 0x20 Bytes, ...)
T140C 000:897.181   CPU_ReadMem(32 bytes @ 0xE0043FD0)
T140C 000:897.460   Data:  04 00 00 00 00 00 00 00 00 00 00 00 00 00 00 00 ...
T140C 000:897.468 - 0.294ms returns 0
T140C 000:897.476 JLINK_ReadMemU32(0xE000ED00, 0x1 Items)
T140C 000:897.483   CPU_ReadMem(4 bytes @ 0xE000ED00)
T140C 000:897.662   Data:  71 C2 1F 41
T140C 000:897.675   Debug reg: CPUID
T140C 000:897.683 - 0.206ms returns 1 (0x1)
T140C 000:897.691 JLINK_ReadMemU32(0xE000EDF0, 0x1 Items)
T140C 000:897.699   CPU_ReadMem(4 bytes @ 0xE000EDF0)
T140C 000:897.911   Data:  01 00 01 01
T140C 000:897.920   Debug reg: DHCSR
T140C 000:897.928 - 0.237ms returns 1 (0x1)
T140C 000:897.936 JLINK_HasError()
T140C 000:897.943 JLINK_SetResetType(JLINKARM_CM3_RESET_TYPE_NORMAL)
T140C 000:897.949 - 0.005ms returns JLINKARM_CM3_RESET_TYPE_NORMAL
T140C 000:897.958 JLINK_Reset()
T140C 000:897.976   CPU is running
T140C 000:897.985   CPU_WriteMem(4 bytes @ 0xE000EDF0)
T140C 000:898.149   CPU is running
T140C 000:898.158   CPU_WriteMem(4 bytes @ 0xE000EDFC)
T140C 000:901.023   Reset: Halt core after reset via DEMCR.VC_CORERESET.
T140C 000:903.725   Reset: Reset device via AIRCR.SYSRESETREQ.
T140C 000:903.751   CPU is running
T140C 000:903.763   CPU_WriteMem(4 bytes @ 0xE000ED0C)
T140C 000:956.917   CPU_ReadMem(4 bytes @ 0xE000EDF0)
T140C 000:957.222   CPU_ReadMem(4 bytes @ 0xE000EDF0)
T140C 000:958.608   CPU_WriteMem(4 bytes @ 0xE000EDFC)
T140C 000:964.530   CPU_ReadMem(4 bytes @ 0xE000EDF0)
T140C 000:965.768   CPU_WriteMem(4 bytes @ 0xE0002000)
T140C 000:965.949   CPU_ReadMem(4 bytes @ 0xE000EDFC)
T140C 000:966.161   CPU_ReadMem(4 bytes @ 0xE0001000)
T140C 000:966.419 - 68.460ms
T140C 000:966.470 JLINK_Halt()
T140C 000:966.477 - 0.006ms returns 0x00
T140C 000:966.483 JLINK_IsHalted()
T140C 000:966.489 - 0.005ms returns TRUE
T140C 000:966.496 JLINK_ReadMemU32(0xE000EDF0, 0x1 Items)
T140C 000:966.508   CPU_ReadMem(4 bytes @ 0xE000EDF0)
T140C 000:966.684   Data:  03 00 03 00
T140C 000:966.693   Debug reg: DHCSR
T140C 000:966.701 - 0.204ms returns 1 (0x1)
T140C 000:966.708 JLINK_WriteU32_64(0xE000EDF0, 0xA05F0003)
T140C 000:966.714   Debug reg: DHCSR
T140C 000:966.940   CPU_WriteMem(4 bytes @ 0xE000EDF0)
T140C 000:967.133 - 0.424ms returns 0 (0x00000000)
T140C 000:967.146 JLINK_WriteU32_64(0xE000EDFC, 0x01000000)
T140C 000:967.152   Debug reg: DEMCR
T140C 000:967.163   CPU_WriteMem(4 bytes @ 0xE000EDFC)
T140C 000:967.324 - 0.178ms returns 0 (0x00000000)
T140C 000:977.335 JLINK_GetHWStatus(...)
T140C 000:977.514 - 0.179ms returns 0
T140C 000:982.873 JLINK_GetNumBPUnits(Type = 0xFFFFFF00)
T140C 000:982.887 - 0.013ms returns 0x08
T140C 000:982.894 JLINK_GetNumBPUnits(Type = 0xF0)
T140C 000:982.900 - 0.005ms returns 0x2000
T140C 000:982.906 JLINK_GetNumWPUnits()
T140C 000:982.912 - 0.005ms returns 4
T140C 000:990.832 JLINK_GetSpeed()
T140C 000:990.852 - 0.020ms returns 15000
T140C 000:994.983 JLINK_ReadMemU32(0xE000E004, 0x1 Items)
T140C 000:995.007   CPU_ReadMem(4 bytes @ 0xE000E004)
T140C 000:995.268   Data:  04 00 00 00
T140C 000:995.278 - 0.295ms returns 1 (0x1)
T140C 000:995.286 JLINK_ReadMemU32(0xE000E004, 0x1 Items)
T140C 000:995.293   CPU_ReadMem(4 bytes @ 0xE000E004)
T140C 000:995.502   Data:  04 00 00 00
T140C 000:995.510 - 0.224ms returns 1 (0x1)
T140C 000:995.518 JLINK_WriteMem(0xE0001000, 0x1C Bytes, ...)
T140C 000:995.524   Data:  01 00 00 00 00 00 00 00 00 00 00 00 00 00 00 00 ...
T140C 000:995.536   CPU_WriteMem(28 bytes @ 0xE0001000)
T140C 000:995.787 - 0.268ms returns 0x1C
T140C 000:995.795 JLINK_ReadMem(0xE0001000, 0x1C Bytes, ...)
T140C 000:995.802   CPU_ReadMem(28 bytes @ 0xE0001000)
T140C 000:996.057   Data:  01 00 00 40 00 00 00 00 00 00 00 00 00 00 00 00 ...
T140C 000:996.065 - 0.270ms returns 0
T140C 000:996.075 JLINK_Halt()
T140C 000:996.081 - 0.005ms returns 0x00
T140C 000:996.087 JLINK_IsHalted()
T140C 000:996.093 - 0.005ms returns TRUE
T140C 001:001.731 JLINK_WriteMem(0x20000000, 0x418 Bytes, ...)
T140C 001:001.746   Data:  00 BE 0A E0 0D 78 2D 06 68 40 08 24 40 00 00 D3 ...
T140C 001:002.111   CPU_WriteMem(1048 bytes @ 0x20000000)
T140C 001:003.682 - 1.951ms returns 0x418
T140C 001:003.748 JLINK_HasError()
T140C 001:003.786 JLINK_WriteReg(R0, 0x08000000)
T140C 001:003.800 - 0.038ms returns 0
T140C 001:003.807 JLINK_WriteReg(R1, 0x07270E00)
T140C 001:003.813 - 0.005ms returns 0
T140C 001:003.819 JLINK_WriteReg(R2, 0x00000001)
T140C 001:003.825 - 0.005ms returns 0
T140C 001:003.831 JLINK_WriteReg(R3, 0x00000000)
T140C 001:003.837 - 0.005ms returns 0
T140C 001:003.843 JLINK_WriteReg(R4, 0x00000000)
T140C 001:003.848 - 0.005ms returns 0
T140C 001:003.855 JLINK_WriteReg(R5, 0x00000000)
T140C 001:003.861 - 0.005ms returns 0
T140C 001:003.867 JLINK_WriteReg(R6, 0x00000000)
T140C 001:003.872 - 0.005ms returns 0
T140C 001:003.879 JLINK_WriteReg(R7, 0x00000000)
T140C 001:003.935 - 0.055ms returns 0
T140C 001:003.944 JLINK_WriteReg(R8, 0x00000000)
T140C 001:003.949 - 0.005ms returns 0
T140C 001:003.956 JLINK_WriteReg(R9, 0x20000414)
T140C 001:003.961 - 0.005ms returns 0
T140C 001:003.967 JLINK_WriteReg(R10, 0x00000000)
T140C 001:003.973 - 0.005ms returns 0
T140C 001:003.979 JLINK_WriteReg(R11, 0x00000000)
T140C 001:003.985 - 0.005ms returns 0
T140C 001:003.991 JLINK_WriteReg(R12, 0x00000000)
T140C 001:003.997 - 0.005ms returns 0
T140C 001:004.004 JLINK_WriteReg(R13 (SP), 0x20001000)
T140C 001:004.010 - 0.006ms returns 0
T140C 001:004.017 JLINK_WriteReg(R14, 0x20000001)
T140C 001:004.022 - 0.005ms returns 0
T140C 001:004.226 JLINK_WriteReg(R15 (PC), 0x2000003E)
T140C 001:004.242 - 0.213ms returns 0
T140C 001:004.251 JLINK_WriteReg(XPSR, 0x01000000)
T140C 001:004.257 - 0.006ms returns 0
T140C 001:004.263 JLINK_WriteReg(MSP, 0x20001000)
T140C 001:004.269 - 0.005ms returns 0
T140C 001:004.275 JLINK_WriteReg(PSP, 0x20001000)
T140C 001:004.281 - 0.005ms returns 0
T140C 001:004.287 JLINK_WriteReg(CFBP, 0x00000000)
T140C 001:004.292 - 0.005ms returns 0
T140C 001:004.300 JLINK_SetBPEx(Addr = 0x20000000, Type = 0xFFFFFFF2)
T140C 001:004.308 - 0.008ms returns 0x00000001
T140C 001:004.314 JLINK_Go()
T140C 001:004.325   CPU_WriteMem(4 bytes @ 0xE0002000)
T140C 001:004.742   CPU_ReadMem(4 bytes @ 0xE0001000)
T140C 001:005.016   CPU_WriteMem(4 bytes @ 0xE0002008)
T140C 001:005.028   CPU_WriteMem(4 bytes @ 0xE000200C)
T140C 001:005.036   CPU_WriteMem(4 bytes @ 0xE0002010)
T140C 001:005.044   CPU_WriteMem(4 bytes @ 0xE0002014)
T140C 001:005.052   CPU_WriteMem(4 bytes @ 0xE0002018)
T140C 001:005.060   CPU_WriteMem(4 bytes @ 0xE000201C)
T140C 001:005.068   CPU_WriteMem(4 bytes @ 0xE0002020)
T140C 001:005.076   CPU_WriteMem(4 bytes @ 0xE0002024)
T140C 001:005.719   CPU_WriteMem(4 bytes @ 0xE0001004)
T140C 001:009.713   Memory map 'after startup completion point' is active
T140C 001:009.728 - 5.412ms
T140C 001:009.737 JLINK_IsHalted()
T140C 001:010.847 - 1.109ms returns TRUE
T140C 001:010.861 JLINK_ReadReg(R15 (PC))
T140C 001:010.869 - 0.007ms returns 0x20000000
T140C 001:010.875 JLINK_ClrBPEx(BPHandle = 0x00000001)
T140C 001:010.882 - 0.006ms returns 0x00
T140C 001:010.888 JLINK_ReadReg(R0)
T140C 001:010.894 - 0.005ms returns 0x00000000
T140C 001:011.149 JLINK_HasError()
T140C 001:011.160 JLINK_WriteReg(R0, 0x08000000)
T140C 001:011.167 - 0.006ms returns 0
T140C 001:011.173 JLINK_WriteReg(R1, 0x00020000)
T140C 001:011.179 - 0.005ms returns 0
T140C 001:011.185 JLINK_WriteReg(R2, 0x000000FF)
T140C 001:011.191 - 0.005ms returns 0
T140C 001:011.197 JLINK_WriteReg(R3, 0x00000000)
T140C 001:011.202 - 0.005ms returns 0
T140C 001:011.209 JLINK_WriteReg(R4, 0x00000000)
T140C 001:011.214 - 0.005ms returns 0
T140C 001:011.220 JLINK_WriteReg(R5, 0x00000000)
T140C 001:011.226 - 0.005ms returns 0
T140C 001:011.232 JLINK_WriteReg(R6, 0x00000000)
T140C 001:011.237 - 0.005ms returns 0
T140C 001:011.244 JLINK_WriteReg(R7, 0x00000000)
T140C 001:011.249 - 0.005ms returns 0
T140C 001:011.256 JLINK_WriteReg(R8, 0x00000000)
T140C 001:011.261 - 0.005ms returns 0
T140C 001:011.267 JLINK_WriteReg(R9, 0x20000414)
T140C 001:011.273 - 0.005ms returns 0
T140C 001:011.279 JLINK_WriteReg(R10, 0x00000000)
T140C 001:011.285 - 0.005ms returns 0
T140C 001:011.291 JLINK_WriteReg(R11, 0x00000000)
T140C 001:011.296 - 0.005ms returns 0
T140C 001:011.303 JLINK_WriteReg(R12, 0x00000000)
T140C 001:011.308 - 0.005ms returns 0
T140C 001:011.315 JLINK_WriteReg(R13 (SP), 0x20001000)
T140C 001:011.320 - 0.005ms returns 0
T140C 001:011.326 JLINK_WriteReg(R14, 0x20000001)
T140C 001:011.332 - 0.005ms returns 0
T140C 001:011.338 JLINK_WriteReg(R15 (PC), 0x20000020)
T140C 001:011.344 - 0.005ms returns 0
T140C 001:011.350 JLINK_WriteReg(XPSR, 0x01000000)
T140C 001:011.356 - 0.005ms returns 0
T140C 001:011.362 JLINK_WriteReg(MSP, 0x20001000)
T140C 001:011.367 - 0.005ms returns 0
T140C 001:011.374 JLINK_WriteReg(PSP, 0x20001000)
T140C 001:011.379 - 0.005ms returns 0
T140C 001:011.389 JLINK_WriteReg(CFBP, 0x00000000)
T140C 001:011.396 - 0.007ms returns 0
T140C 001:011.403 JLINK_SetBPEx(Addr = 0x20000000, Type = 0xFFFFFFF2)
T140C 001:011.409 - 0.006ms returns 0x00000002
T140C 001:011.416 JLINK_Go()
T140C 001:011.425   CPU_WriteMem(4 bytes @ 0xE0002000)
T140C 001:011.633   CPU_ReadMem(4 bytes @ 0xE0001000)
T140C 001:012.915 - 1.498ms
T140C 001:012.923 JLINK_IsHalted()
T140C 001:013.879 - 0.955ms returns TRUE
T140C 001:013.888 JLINK_ReadReg(R15 (PC))
T140C 001:013.895 - 0.006ms returns 0x20000000
T140C 001:013.901 JLINK_ClrBPEx(BPHandle = 0x00000002)
T140C 001:013.907 - 0.005ms returns 0x00
T140C 001:013.914 JLINK_ReadReg(R0)
T140C 001:013.920 - 0.005ms returns 0x00000001
T140C 001:013.926 JLINK_HasError()
T140C 001:013.933 JLINK_WriteReg(R0, 0x08000000)
T140C 001:013.939 - 0.005ms returns 0
T140C 001:013.946 JLINK_WriteReg(R1, 0x00020000)
T140C 001:013.951 - 0.005ms returns 0
T140C 001:013.957 JLINK_WriteReg(R2, 0x000000FF)
T140C 001:013.963 - 0.005ms returns 0
T140C 001:013.969 JLINK_WriteReg(R3, 0x00000000)
T140C 001:013.975 - 0.005ms returns 0
T140C 001:013.981 JLINK_WriteReg(R4, 0x00000000)
T140C 001:013.986 - 0.005ms returns 0
T140C 001:013.993 JLINK_WriteReg(R5, 0x00000000)
T140C 001:013.998 - 0.005ms returns 0
T140C 001:014.004 JLINK_WriteReg(R6, 0x00000000)
T140C 001:014.010 - 0.005ms returns 0
T140C 001:014.016 JLINK_WriteReg(R7, 0x00000000)
T140C 001:014.021 - 0.005ms returns 0
T140C 001:014.028 JLINK_WriteReg(R8, 0x00000000)
T140C 001:014.033 - 0.005ms returns 0
T140C 001:014.040 JLINK_WriteReg(R9, 0x20000414)
T140C 001:014.045 - 0.005ms returns 0
T140C 001:014.051 JLINK_WriteReg(R10, 0x00000000)
T140C 001:014.057 - 0.005ms returns 0
T140C 001:014.063 JLINK_WriteReg(R11, 0x00000000)
T140C 001:014.069 - 0.005ms returns 0
T140C 001:014.075 JLINK_WriteReg(R12, 0x00000000)
T140C 001:014.080 - 0.005ms returns 0
T140C 001:014.087 JLINK_WriteReg(R13 (SP), 0x20001000)
T140C 001:014.093 - 0.005ms returns 0
T140C 001:014.099 JLINK_WriteReg(R14, 0x20000001)
T140C 001:014.104 - 0.005ms returns 0
T140C 001:014.111 JLINK_WriteReg(R15 (PC), 0x2000018E)
T140C 001:014.116 - 0.005ms returns 0
T140C 001:014.123 JLINK_WriteReg(XPSR, 0x01000000)
T140C 001:014.128 - 0.005ms returns 0
T140C 001:014.134 JLINK_WriteReg(MSP, 0x20001000)
T140C 001:014.140 - 0.005ms returns 0
T140C 001:014.146 JLINK_WriteReg(PSP, 0x20001000)
T140C 001:014.152 - 0.005ms returns 0
T140C 001:014.158 JLINK_WriteReg(CFBP, 0x00000000)
T140C 001:014.163 - 0.005ms returns 0
T140C 001:014.170 JLINK_SetBPEx(Addr = 0x20000000, Type = 0xFFFFFFF2)
T140C 001:014.176 - 0.006ms returns 0x00000003
T140C 001:014.182 JLINK_Go()
T140C 001:014.189   CPU_WriteMem(4 bytes @ 0xE0002000)
T140C 001:014.405   CPU_ReadMem(4 bytes @ 0xE0001000)
T140C 001:015.660 - 1.477ms
T140C 001:015.669 JLINK_IsHalted()
T140C 001:015.845 - 0.176ms returns FALSE
T140C 001:015.856 JLINK_HasError()
T140C 001:039.097 JLINK_IsHalted()
T140C 001:039.415 - 0.319ms returns FALSE
T140C 001:039.425 JLINK_HasError()
T140C 001:041.093 JLINK_IsHalted()
T140C 001:041.361 - 0.268ms returns FALSE
T140C 001:041.372 JLINK_HasError()
T140C 001:043.306 JLINK_IsHalted()
T140C 001:043.572 - 0.267ms returns FALSE
T140C 001:043.580 JLINK_HasError()
T140C 001:044.995 JLINK_IsHalted()
T140C 001:045.250 - 0.257ms returns FALSE
T140C 001:045.259 JLINK_HasError()
T140C 001:047.250 JLINK_IsHalted()
T140C 001:047.485 - 0.236ms returns FALSE
T140C 001:047.493 JLINK_HasError()
T140C 001:049.252 JLINK_IsHalted()
T140C 001:049.520 - 0.267ms returns FALSE
T140C 001:049.532 JLINK_HasError()
T140C 001:051.206 JLINK_IsHalted()
T140C 001:051.386 - 0.179ms returns FALSE
T140C 001:051.395 JLINK_HasError()
T140C 001:053.226 JLINK_IsHalted()
T140C 001:053.510 - 0.286ms returns FALSE
T140C 001:053.519 JLINK_HasError()
T140C 001:055.208 JLINK_IsHalted()
T140C 001:055.368 - 0.159ms returns FALSE
T140C 001:055.376 JLINK_HasError()
T140C 001:057.223 JLINK_IsHalted()
T140C 001:057.368 - 0.145ms returns FALSE
T140C 001:057.380 JLINK_HasError()
T140C 001:059.240 JLINK_IsHalted()
T140C 001:059.462 - 0.222ms returns FALSE
T140C 001:059.471 JLINK_HasError()
T140C 001:060.819 JLINK_IsHalted()
T140C 001:061.079 - 0.260ms returns FALSE
T140C 001:061.094 JLINK_HasError()
T140C 001:062.823 JLINK_IsHalted()
T140C 001:063.089 - 0.266ms returns FALSE
T140C 001:063.097 JLINK_HasError()
T140C 001:064.790 JLINK_IsHalted()
T140C 001:065.032 - 0.241ms returns FALSE
T140C 001:065.046 JLINK_HasError()
T140C 001:076.006 JLINK_IsHalted()
T140C 001:076.290 - 0.285ms returns FALSE
T140C 001:076.299 JLINK_HasError()
T140C 001:078.196 JLINK_IsHalted()
T140C 001:078.510 - 0.314ms returns FALSE
T140C 001:078.517 JLINK_HasError()
T140C 001:080.168 JLINK_IsHalted()
T140C 001:080.413 - 0.244ms returns FALSE
T140C 001:080.427 JLINK_HasError()
T140C 001:082.197 JLINK_IsHalted()
T140C 001:082.453 - 0.256ms returns FALSE
